# vsim -vopt work.HvlTop work.HdlTop -voptargs="+acc=npr" -sv_seed random -assertdebug "+UVM_TESTNAME=AhbSingleWriteTest" "+UVM_VERBOSITY=UVM_HIGH" "+define+" -l AhbSingleWriteTest/AhbSingleWriteTest.log -sva -coverage -c -do "log -r /*; add wave -r /*; coverage save -onexit -assert -directive -cvg -codeAll AhbSingleWriteTest/AhbSingleWriteTest_coverage.ucdb; run -all; exit" -wlf AhbSingleWriteTest/waveform.wlf 
# Start time: 14:32:20 on Jul 21,2025
# ** Note: (vsim-3812) Design is being optimized...
# //  Questa Sim
# //  Version 10.6c linux Jul 25 2017
# //
# //  Copyright 1991-2017 Mentor Graphics Corporation
# //  All Rights Reserved.
# //
# //  QuestaSim and its associated documentation contain trade
# //  secrets and commercial or financial information that are the property of
# //  Mentor Graphics Corporation and are privileged, confidential,
# //  and exempt from disclosure under the Freedom of Information Act,
# //  5 U.S.C. Section 552. Furthermore, this information
# //  is prohibited from disclosure under the Trade Secrets Act,
# //  18 U.S.C. Section 1905.
# //
# Loading sv_std.std
# Loading work.AhbMasterDriverBFM(fast)
# Loading work.AhbSlaveMonitorBFM(fast)
# Loading work.AhbGlobalPackage(fast)
# Loading mtiUvm.uvm_pkg
# Loading work.AhbSlavePackage(fast)
# Loading work.AhbMasterPackage(fast)
# Loading work.AhbEnvironmentPackage(fast)
# Loading work.AhbSlaveSequencePackage(fast)
# Loading work.AhbMasterSequencePackage(fast)
# Loading work.AhbVirtualSequencePackage(fast)
# Loading work.AhbTestPackage(fast)
# Loading work.AhbMasterMonitorBFM(fast)
# Loading work.AhbSlaveDriverBFM(fast)
# Loading work.HvlTop(fast)
# Loading work.HdlTop(fast)
# Loading work.AhbInterconnect_sv_unit(fast)
# Loading work.AhbInterconnect(fast)
# Loading work.AhbMasterAgentBFM(fast)
# Loading work.AhbMasterDriverBFM_sv_unit(fast)
# Loading work.AhbMasterDriverBFM(fast)
# Loading work.AhbMasterMonitorBFM_sv_unit(fast)
# Loading work.AhbMasterMonitorBFM(fast)
# Loading work.AhbMasterAgentBFM(fast__1)
# Loading work.AhbSlaveAgentBFM(fast)
# Loading work.AhbSlaveDriverBFM_sv_unit(fast)
# Loading work.AhbSlaveDriverBFM(fast)
# Loading work.AhbSlaveMonitorBFM_sv_unit(fast)
# Loading work.AhbSlaveMonitorBFM(fast)
# Loading work.AhbSlaveAgentBFM(fast__1)
# Loading mtiUvm.questa_uvm_pkg(fast)
# Loading work.AhbInterface_sv_unit(fast)
# Loading work.AhbInterface(fast__1)
# ** Warning: (vsim-3015) ../../src/hdlTop/slaveAgentBFM/AhbSlaveAgentBFM.sv(40): [PCDPC] - Port size (2) does not match connection size (1) for port 'hselx'. The port definition is at: ../../src/hdlTop/slaveAgentBFM/AhbSlaveMonitorBFM.sv(25).
#    Time: 0 ns  Iteration: 0  Instance: /HdlTop/genblk2[0]/ahbSlaveAgentBFM/ahbSlaveMonitorBFM File: ../../src/hdlTop/slaveAgentBFM/AhbSlaveMonitorBFM.sv
# ** Warning: (vsim-3015) ../../src/hdlTop/slaveAgentBFM/AhbSlaveAgentBFM.sv(40): [PCDPC] - Port size (2) does not match connection size (1) for port 'hselx'. The port definition is at: ../../src/hdlTop/slaveAgentBFM/AhbSlaveMonitorBFM.sv(25).
#    Time: 0 ns  Iteration: 0  Instance: /HdlTop/genblk2[1]/ahbSlaveAgentBFM/ahbSlaveMonitorBFM File: ../../src/hdlTop/slaveAgentBFM/AhbSlaveMonitorBFM.sv
# Loading /tools/mentor/questasim_10.6c/questasim/uvm-1.1d/linux/uvm_dpi.so
# Sv_Seed = 1562443380
# log -r /*
#  add wave -r /*
#  coverage save -onexit -assert -directive -cvg -codeAll AhbSingleWriteTest/AhbSingleWriteTest_coverage.ucdb
#  run -all
# ----------------------------------------------------------------
# UVM-1.1d
# (C) 2007-2013 Mentor Graphics Corporation
# (C) 2007-2013 Cadence Design Systems, Inc.
# (C) 2006-2013 Synopsys, Inc.
# (C) 2011-2013 Cypress Semiconductor Corp.
# ----------------------------------------------------------------
# 
#   ***********       IMPORTANT RELEASE NOTES         ************
# 
#   You are using a version of the UVM library that has been compiled
#   with `UVM_NO_DEPRECATED undefined.
#   See http://www.eda.org/svdb/view.php?id=3313 for more details.
# 
#   You are using a version of the UVM library that has been compiled
#   with `UVM_OBJECT_MUST_HAVE_CONSTRUCTOR undefined.
#   See http://www.eda.org/svdb/view.php?id=3770 for more details.
# 
#       (Specify +UVM_NO_RELNOTES to turn off this notice)
# 
# UVM_INFO verilog_src/questa_uvm_pkg-1.2/src/questa_uvm_pkg.sv(215) @ 0: reporter [Questa UVM] QUESTA_UVM-1.2.3
# UVM_INFO verilog_src/questa_uvm_pkg-1.2/src/questa_uvm_pkg.sv(217) @ 0: reporter [Questa UVM]  questa_uvm::init(+struct)
# UVM_INFO @ 0: reporter [RNTST] Running test AhbSingleWriteTest...
# UVM_INFO ../../src/hdlTop/HdlTop.sv(13) @ 0: reporter [HDL_TOP] HDL_TOP
# UVM_INFO ../../src/hdlTop/masterAgentBFM/AhbMasterAgentBFM.sv(15) @ 0: reporter [ahb master agent bfm] AHB MASTER AGENT BFM id is 0
# THE MASTER AGENT ARE  CREATED AS EXPECTED HdlTop.genblk1[0].ahbMasterAgentBFM.ahbMasterDriverBFM.MASTER_DRIVER
# UVM_INFO ../../src/hdlTop/masterAgentBFM/AhbMasterMonitorBFM.sv(38) @ 0: reporter [AHB_MASTER_MONITOR_BFM] AHB MASTER MONITOR BFM
# UVM_INFO ../../src/hdlTop/masterAgentBFM/AhbMasterAgentBFM.sv(15) @ 0: reporter [ahb master agent bfm] AHB MASTER AGENT BFM id is 1
# THE MASTER AGENT ARE  CREATED AS EXPECTED HdlTop.genblk1[1].ahbMasterAgentBFM.ahbMasterDriverBFM.MASTER_DRIVER
# UVM_INFO ../../src/hdlTop/masterAgentBFM/AhbMasterMonitorBFM.sv(38) @ 0: reporter [AHB_MASTER_MONITOR_BFM] AHB MASTER MONITOR BFM
# UVM_INFO ../../src/hdlTop/slaveAgentBFM/AhbSlaveAgentBFM.sv(14) @ 0: reporter [ahb slave agent bfm] AHB SLAVE AGENT BFM 0
# UVM_INFO ../../src/hdlTop/slaveAgentBFM/AhbSlaveDriverBFM.sv(50) @ 0: reporter [AHB_SLAVE_DRIVER_BFM] AHB_SLAVE_DRIVER_BFM
# UVM_INFO ../../src/hdlTop/slaveAgentBFM/AhbSlaveMonitorBFM.sv(39) @ 0: reporter [AHB_SLAVE_MONITOR_BFM] AHB_SLAVE_MONITOR_BFM
# UVM_INFO ../../src/hdlTop/slaveAgentBFM/AhbSlaveAgentBFM.sv(14) @ 0: reporter [ahb slave agent bfm] AHB SLAVE AGENT BFM 1
# UVM_INFO ../../src/hdlTop/slaveAgentBFM/AhbSlaveDriverBFM.sv(50) @ 0: reporter [AHB_SLAVE_DRIVER_BFM] AHB_SLAVE_DRIVER_BFM
# UVM_INFO ../../src/hdlTop/slaveAgentBFM/AhbSlaveMonitorBFM.sv(39) @ 0: reporter [AHB_SLAVE_MONITOR_BFM] AHB_SLAVE_MONITOR_BFM
# THE MASTER FIELD IS AhbMasterDriverBFM0 
# THE MASTER FIELD IS AhbMasterDriverBFM1 
# UVM_INFO ../../src/hvlTop/tb/test/AhbBaseTest.sv(57) @ 0: uvm_test_top [AhbSingleWriteTest] 
# AHB_MASTER_CONFIG[0]
# ----------------------------------------------------------
# Name                     Type                  Size  Value
# ----------------------------------------------------------
# AhbMasterAgentConfig[0]  AhbMasterAgentConfig  -     @505 
#   is_active              integral              1     1    
#   hasCoverage            integral              1     1    
# ----------------------------------------------------------
# 
# UVM_INFO ../../src/hvlTop/tb/test/AhbBaseTest.sv(57) @ 0: uvm_test_top [AhbSingleWriteTest] 
# AHB_MASTER_CONFIG[1]
# ----------------------------------------------------------
# Name                     Type                  Size  Value
# ----------------------------------------------------------
# AhbMasterAgentConfig[1]  AhbMasterAgentConfig  -     @506 
#   is_active              integral              1     1    
#   hasCoverage            integral              1     1    
# ----------------------------------------------------------
# 
# THE FIELD IS AhbSlaveDriverBFM0
# THE FIELD IS AhbSlaveDriverBFM1
# UVM_INFO ../../src/hvlTop/tb/test/AhbBaseTest.sv(69) @ 0: uvm_test_top [AhbSingleWriteTest] 
# AHB_SLAVE_CONFIG[0]
# -------------------------------------------------------------
# Name                    Type                 Size  Value     
# -------------------------------------------------------------
# AhbSlaveAgentConfig[0]  AhbSlaveAgentConfig  -     @517      
#   is_active             string               10    UVM_ACTIVE
#   hasCoverage           integral             1     1         
#   maximumAddress        integral             32    'h0       
#   minimumAddress        integral             32    'h0       
# -------------------------------------------------------------
# 
# UVM_INFO ../../src/hvlTop/tb/test/AhbBaseTest.sv(69) @ 0: uvm_test_top [AhbSingleWriteTest] 
# AHB_SLAVE_CONFIG[1]
# -------------------------------------------------------------
# Name                    Type                 Size  Value     
# -------------------------------------------------------------
# AhbSlaveAgentConfig[1]  AhbSlaveAgentConfig  -     @518      
#   is_active             string               10    UVM_ACTIVE
#   hasCoverage           integral             1     1         
#   maximumAddress        integral             32    'h0       
#   minimumAddress        integral             32    'h0       
# -------------------------------------------------------------
# 
# UVM_INFO ../../src/hvlTop/tb/test/AhbBaseTest.sv(73) @ 0: uvm_test_top [AhbSingleWriteTest] 
# AHB_ENV_CONFIG
# -------------------------------------------------------------
# Name                   Type                  Size  Value     
# -------------------------------------------------------------
# ahbEnvironmentConfig   AhbEnvironmentConfig  -     @504      
#   hasScoreboard        integral              1     1         
#   hasVirtualSequencer  integral              1     1         
#   noOfMasters          integral              32    'd2       
#   noOfSlaves           integral              32    'd2       
#   operationMode        integral              2     2         
#   operationMode        string                10    WRITE_READ
# -------------------------------------------------------------
# 
# THE CONFIG IS 65903
# THE CONFIG IS 131439
# UVM_INFO @ 0: reporter [UVMTOP] UVM testbench topology:
# -----------------------------------------------------------------------
# Name                            Type                        Size  Value
# -----------------------------------------------------------------------
# uvm_test_top                    AhbSingleWriteTest          -     @473 
#   ahbEnvironment                AhbEnvironment              -     @533 
#     ahbMasterAgent[0]           AhbMasterAgent              -     @543 
#       ahbMasterCoverage         AhbMasterCoverage           -     @1025
#         analysis_imp            uvm_analysis_imp            -     @1032
#       ahbMasterDriverProxy      AhbMasterDriverProxy        -     @987 
#         rsp_port                uvm_analysis_port           -     @1002
#         seq_item_port           uvm_seq_item_pull_port      -     @994 
#       ahbMasterMonitorProxy     AhbMasterMonitorProxy       -     @1010
#         ahbMasterAnalysisPort   uvm_analysis_port           -     @1017
#       ahbMasterSequencer        AhbMasterSequencer          -     @878 
#         rsp_export              uvm_analysis_export         -     @885 
#         seq_item_export         uvm_seq_item_pull_imp       -     @979 
#         arbitration_queue       array                       0     -    
#         lock_queue              array                       0     -    
#         num_last_reqs           integral                    32    'd1  
#         num_last_rsps           integral                    32    'd1  
#     ahbMasterAgent[1]           AhbMasterAgent              -     @550 
#       ahbMasterCoverage         AhbMasterCoverage           -     @1193
#         analysis_imp            uvm_analysis_imp            -     @1200
#       ahbMasterDriverProxy      AhbMasterDriverProxy        -     @1155
#         rsp_port                uvm_analysis_port           -     @1170
#         seq_item_port           uvm_seq_item_pull_port      -     @1162
#       ahbMasterMonitorProxy     AhbMasterMonitorProxy       -     @1178
#         ahbMasterAnalysisPort   uvm_analysis_port           -     @1185
#       ahbMasterSequencer        AhbMasterSequencer          -     @1046
#         rsp_export              uvm_analysis_export         -     @1053
#         seq_item_export         uvm_seq_item_pull_imp       -     @1147
#         arbitration_queue       array                       0     -    
#         lock_queue              array                       0     -    
#         num_last_reqs           integral                    32    'd1  
#         num_last_rsps           integral                    32    'd1  
#     ahbScoreboard               AhbScoreboard               -     @682 
#       ahbMasterAnalysisFifo[0]  uvm_tlm_analysis_fifo #(T)  -     @689 
#         analysis_export         uvm_analysis_imp            -     @728 
#         get_ap                  uvm_analysis_port           -     @720 
#         get_peek_export         uvm_get_peek_imp            -     @704 
#         put_ap                  uvm_analysis_port           -     @712 
#         put_export              uvm_put_imp                 -     @696 
#       ahbMasterAnalysisFifo[1]  uvm_tlm_analysis_fifo #(T)  -     @736 
#         analysis_export         uvm_analysis_imp            -     @775 
#         get_ap                  uvm_analysis_port           -     @767 
#         get_peek_export         uvm_get_peek_imp            -     @751 
#         put_ap                  uvm_analysis_port           -     @759 
#         put_export              uvm_put_imp                 -     @743 
#       ahbSlaveAnalysisFifo[0]   uvm_tlm_analysis_fifo #(T)  -     @783 
#         analysis_export         uvm_analysis_imp            -     @822 
#         get_ap                  uvm_analysis_port           -     @814 
#         get_peek_export         uvm_get_peek_imp            -     @798 
#         put_ap                  uvm_analysis_port           -     @806 
#         put_export              uvm_put_imp                 -     @790 
#       ahbSlaveAnalysisFifo[1]   uvm_tlm_analysis_fifo #(T)  -     @830 
#         analysis_export         uvm_analysis_imp            -     @869 
#         get_ap                  uvm_analysis_port           -     @861 
#         get_peek_export         uvm_get_peek_imp            -     @845 
#         put_ap                  uvm_analysis_port           -     @853 
#         put_export              uvm_put_imp                 -     @837 
#     ahbSlaveAgent[0]            AhbSlaveAgent               -     @559 
#       ahbSlaveCoverage          AhbSlaveCoverage            -     @1362
#         analysis_imp            uvm_analysis_imp            -     @1369
#       ahbSlaveDriverProxy       AhbSlaveDriverProxy         -     @1324
#         rsp_port                uvm_analysis_port           -     @1339
#         seq_item_port           uvm_seq_item_pull_port      -     @1331
#       ahbSlaveMonitorProxy      AhbSlaveMonitorProxy        -     @1347
#         ahbSlaveAnalysisPort    uvm_analysis_port           -     @1354
#       ahbSlaveSequencer         AhbSlaveSequencer           -     @1215
#         rsp_export              uvm_analysis_export         -     @1222
#         seq_item_export         uvm_seq_item_pull_imp       -     @1316
#         arbitration_queue       array                       0     -    
#         lock_queue              array                       0     -    
#         num_last_reqs           integral                    32    'd1  
#         num_last_rsps           integral                    32    'd1  
#     ahbSlaveAgent[1]            AhbSlaveAgent               -     @566 
#       ahbSlaveCoverage          AhbSlaveCoverage            -     @1530
#         analysis_imp            uvm_analysis_imp            -     @1537
#       ahbSlaveDriverProxy       AhbSlaveDriverProxy         -     @1492
#         rsp_port                uvm_analysis_port           -     @1507
#         seq_item_port           uvm_seq_item_pull_port      -     @1499
#       ahbSlaveMonitorProxy      AhbSlaveMonitorProxy        -     @1515
#         ahbSlaveAnalysisPort    uvm_analysis_port           -     @1522
#       ahbSlaveSequencer         AhbSlaveSequencer           -     @1383
#         rsp_export              uvm_analysis_export         -     @1390
#         seq_item_export         uvm_seq_item_pull_imp       -     @1484
#         arbitration_queue       array                       0     -    
#         lock_queue              array                       0     -    
#         num_last_reqs           integral                    32    'd1  
#         num_last_rsps           integral                    32    'd1  
#     ahbVirtualSequencer         AhbVirtualSequencer         -     @573 
#       rsp_export                uvm_analysis_export         -     @580 
#       seq_item_export           uvm_seq_item_pull_imp       -     @674 
#       arbitration_queue         array                       0     -    
#       lock_queue                array                       0     -    
#       num_last_reqs             integral                    32    'd1  
#       num_last_rsps             integral                    32    'd1  
# -----------------------------------------------------------------------
# 
# UVM_INFO verilog_src/questa_uvm_pkg-1.2/src/questa_uvm_pkg.sv(277) @ 0: reporter [Questa UVM] End Of Elaboration
# UVM_INFO ../../src/hvlTop/tb/test/AhbSingleWriteTest.sv(33) @ 0: uvm_test_top [AhbSingleWriteTest] AhbSingleWriteTest
# UVM_INFO ../../src/hvlTop/slaveAgent/AhbSlaveDriverProxy.sv(49) @ 0: uvm_test_top.ahbEnvironment.ahbSlaveAgent[1].ahbSlaveDriverProxy [AhbSlaveDriverProxy]  BEFORERESET 
#  
# UVM_INFO ../../src/hvlTop/slaveAgent/AhbSlaveDriverProxy.sv(49) @ 0: uvm_test_top.ahbEnvironment.ahbSlaveAgent[0].ahbSlaveDriverProxy [AhbSlaveDriverProxy]  BEFORERESET 
#  
# UVM_INFO ../../src/hvlTop/masterAgent/AhbMasterMonitorProxy.sv(56) @ 0: uvm_test_top.ahbEnvironment.ahbMasterAgent[1].ahbMasterMonitorProxy [AhbMasterMonitorProxy] Inside the master_monitor_proxy
# UVM_INFO ../../src/hvlTop/masterAgent/AhbMasterMonitorProxy.sv(56) @ 0: uvm_test_top.ahbEnvironment.ahbMasterAgent[0].ahbMasterMonitorProxy [AhbMasterMonitorProxy] Inside the master_monitor_proxy
# ENTERED FORK &&&&&&&&&&&&&&&&&&&&&&&&&&&&&&&&&&
# 
# 
# 
#  HEEEEEEEEEEEEEEEEEEEEEEEEEEEEEEEEEEE ***************************** 
# 
# 
# 
# UVM_INFO ../../src/hdlTop/masterAgentBFM/AhbMasterDriverBFM.sv(47) @ 5: reporter [AHB_MASTER_DRIVER_BFM] SYSTEM RESET DETECTED
# UVM_INFO ../../src/hdlTop/masterAgentBFM/AhbMasterMonitorBFM.sv(43) @ 5: reporter [AHB_MASTER_MONITOR_BFM] system reset detected
# UVM_INFO ../../src/hdlTop/masterAgentBFM/AhbMasterDriverBFM.sv(47) @ 5: reporter [AHB_MASTER_DRIVER_BFM] SYSTEM RESET DETECTED
# UVM_INFO ../../src/hdlTop/masterAgentBFM/AhbMasterMonitorBFM.sv(43) @ 5: reporter [AHB_MASTER_MONITOR_BFM] system reset detected
# UVM_INFO ../../src/hdlTop/slaveAgentBFM/AhbSlaveDriverBFM.sv(62) @ 5: reporter [AHB_SLAVE_DRIVER_BFM] SYSTEM RESET DETECTED
# UVM_INFO ../../src/hdlTop/slaveAgentBFM/AhbSlaveMonitorBFM.sv(44) @ 5: reporter [AHB_SLAVE_MONITOR_BFM] SYSTEM_RESET_DETECTED
# UVM_INFO ../../src/hdlTop/slaveAgentBFM/AhbSlaveDriverBFM.sv(62) @ 5: reporter [AHB_SLAVE_DRIVER_BFM] SYSTEM RESET DETECTED
# UVM_INFO ../../src/hdlTop/slaveAgentBFM/AhbSlaveMonitorBFM.sv(44) @ 5: reporter [AHB_SLAVE_MONITOR_BFM] SYSTEM_RESET_DETECTED
# @                  15 H EY MAN
# UVM_INFO ../../src/hdlTop/masterAgentBFM/AhbMasterDriverBFM.sv(50) @ 15: reporter [AHB_MASTER_DRIVER_BFM]  @15 SYSTEM RESET DEACTIVATED
# UVM_INFO ../../src/hdlTop/masterAgentBFM/AhbMasterMonitorBFM.sv(45) @ 15: reporter [AHB_MASTER_MONITOR_BFM] system reset deactivated
# UVM_INFO ../../src/hdlTop/masterAgentBFM/AhbMasterDriverBFM.sv(50) @ 15: reporter [AHB_MASTER_DRIVER_BFM]  @15 SYSTEM RESET DEACTIVATED
# UVM_INFO ../../src/hdlTop/masterAgentBFM/AhbMasterMonitorBFM.sv(45) @ 15: reporter [AHB_MASTER_MONITOR_BFM] system reset deactivated
# UVM_INFO ../../src/hdlTop/slaveAgentBFM/AhbSlaveDriverBFM.sv(65) @ 15: reporter [AHB_SLAVE_DRIVER_BFM] SYSTEM RESET DEACTIVATED
# UVM_INFO ../../src/hdlTop/slaveAgentBFM/AhbSlaveMonitorBFM.sv(47) @ 15: reporter [AHB_SLAVE_MONITOR_BFM] SYSTEM_RESET_DEACTIVATED
# UVM_INFO ../../src/hdlTop/slaveAgentBFM/AhbSlaveDriverBFM.sv(65) @ 15: reporter [AHB_SLAVE_DRIVER_BFM] SYSTEM RESET DEACTIVATED
# UVM_INFO ../../src/hdlTop/slaveAgentBFM/AhbSlaveMonitorBFM.sv(47) @ 15: reporter [AHB_SLAVE_MONITOR_BFM] SYSTEM_RESET_DEACTIVATED
# ---------------------------------------------------------
# Name                Type                 Size  Value     
# ---------------------------------------------------------
# req                 AhbSlaveTransaction  -     @1615     
#   haddr             integral             32    'h0       
#   hselx             integral             2     'b0       
#   hburst            string               0     ""        
#   hmastlock         integral             1     'h0       
#   hprot             string               0     ""        
#   hsize             string               0     ""        
#   hnonsec           integral             1     'h0       
#   hexcl             integral             1     'h0       
#   hmaster           integral             1     'd0       
#   htrans            string               0     ""        
#   hwrite            string               4     READ      
#   hreadyout         integral             1     'h0       
#   hresp             string               0     ""        
#   hexokay           integral             1     'h1       
#   hready            integral             1     'h0       
#   choosePacketData  integral             1     'd0       
#   hwdata[0]         integral             32    'h3cc0c722
#   hwdata[1]         integral             32    'hcd787b07
#   hwdata[2]         integral             32    'h453f03b1
#   hwdata[3]         integral             32    'h25a01736
#   hwdata[4]         integral             32    'h8891c28d
#   hwdata[5]         integral             32    'h235e11a6
#   hwdata[6]         integral             32    'h69fb171d
#   hwdata[7]         integral             32    'hd61b7043
#   hwdata[8]         integral             32    'hedb47582
#   hwdata[9]         integral             32    'hf374a6a7
#   hwdata[10]        integral             32    'h8fcfae8a
#   hwdata[11]        integral             32    'h838b1888
#   hwdata[12]        integral             32    'h194fbd12
#   hwdata[13]        integral             32    'h9d5f5cf7
#   hwdata[14]        integral             32    'haf5cce1d
#   hwdata[15]        integral             32    'h6d99393d
#   hwstrb[0]         integral             4     'b1101    
#   hwstrb[1]         integral             4     'b10      
#   hwstrb[2]         integral             4     'b10      
#   hwstrb[3]         integral             4     'b1011    
#   hwstrb[4]         integral             4     'b110     
#   hwstrb[5]         integral             4     'b1110    
#   hwstrb[6]         integral             4     'b100     
#   hwstrb[7]         integral             4     'b1111    
#   hwstrb[8]         integral             4     'b1011    
#   hwstrb[9]         integral             4     'b0       
#   hwstrb[10]        integral             4     'b1111    
#   hwstrb[11]        integral             4     'b100     
#   hwstrb[12]        integral             4     'b10      
#   hwstrb[13]        integral             4     'b110     
#   hwstrb[14]        integral             4     'b1011    
#   hwstrb[15]        integral             4     'b0       
#   hrdata[0]         integral             32    'hfdf197c4
#   hrdata[1]         integral             32    'hbcdfb630
#   hrdata[2]         integral             32    'hbb11ff0 
#   hrdata[3]         integral             32    'h939f865e
#   hrdata[4]         integral             32    'h8a1feb2f
#   hrdata[5]         integral             32    'h50b44ca8
#   hrdata[6]         integral             32    'ha177b945
#   hrdata[7]         integral             32    'h792fbff3
#   hrdata[8]         integral             32    'he9df8942
#   hrdata[9]         integral             32    'h6813a7a7
#   hrdata[10]        integral             32    'hd8481503
#   hrdata[11]        integral             32    'hbb364112
#   hrdata[12]        integral             32    'heb595966
#   hrdata[13]        integral             32    'h10d60197
#   hrdata[14]        integral             32    'ha4ebb45 
#   hrdata[15]        integral             32    'h4445ccfd
# ---------------------------------------------------------
# ---------------------------------------------------------
# Name                Type                 Size  Value     
# ---------------------------------------------------------
# req                 AhbSlaveTransaction  -     @1619     
#   haddr             integral             32    'h0       
#   hselx             integral             2     'b0       
#   hburst            string               0     ""        
#   hmastlock         integral             1     'h0       
#   hprot             string               0     ""        
#   hsize             string               0     ""        
#   hnonsec           integral             1     'h0       
#   hexcl             integral             1     'h0       
#   hmaster           integral             1     'd0       
#   htrans            string               0     ""        
#   hwrite            string               4     READ      
#   hreadyout         integral             1     'h1       
#   hresp             string               0     ""        
#   hexokay           integral             1     'h1       
#   hready            integral             1     'h0       
#   choosePacketData  integral             1     'd0       
#   hwdata[0]         integral             32    'he09142d 
#   hwdata[1]         integral             32    'hf0cf714f
#   hwdata[2]         integral             32    'h3b8d94ff
#   hwdata[3]         integral             32    'hef245aee
#   hwdata[4]         integral             32    'h50400c00
#   hwdata[5]         integral             32    'hd6eb0413
#   hwdata[6]         integral             32    'h848e460d
#   hwdata[7]         integral             32    'h95db821c
#   hwdata[8]         integral             32    'hc3cfe6c9
#   hwdata[9]         integral             32    'ha3944e9 
#   hwdata[10]        integral             32    'hf25b565f
#   hwdata[11]        integral             32    'h80706f5d
#   hwdata[12]        integral             32    'h5a7b8ed0
#   hwdata[13]        integral             32    'hca83f411
#   hwdata[14]        integral             32    'hb9572bf6
#   hwdata[15]        integral             32    'h78f8a146
#   hwstrb[0]         integral             4     'b111     
#   hwstrb[1]         integral             4     'b1110    
#   hwstrb[2]         integral             4     'b1111    
#   hwstrb[3]         integral             4     'b1011    
#   hwstrb[4]         integral             4     'b110     
#   hwstrb[5]         integral             4     'b11      
#   hwstrb[6]         integral             4     'b1000    
#   hwstrb[7]         integral             4     'b111     
#   hwstrb[8]         integral             4     'b1001    
#   hwstrb[9]         integral             4     'b1       
#   hwstrb[10]        integral             4     'b1101    
#   hwstrb[11]        integral             4     'b1110    
#   hwstrb[12]        integral             4     'b101     
#   hwstrb[13]        integral             4     'b110     
#   hwstrb[14]        integral             4     'b11      
#   hwstrb[15]        integral             4     'b100     
#   hrdata[0]         integral             32    'h206143de
#   hrdata[1]         integral             32    'h24cb0563
#   hrdata[2]         integral             32    'h4884cb25
#   hrdata[3]         integral             32    'h81aec779
#   hrdata[4]         integral             32    'hcbb27658
#   hrdata[5]         integral             32    'h96840913
#   hrdata[6]         integral             32    'hfb843df3
#   hrdata[7]         integral             32    'h7f20212a
#   hrdata[8]         integral             32    'h25ff5c7a
#   hrdata[9]         integral             32    'hcbec4d0c
#   hrdata[10]        integral             32    'hc0ef7f45
#   hrdata[11]        integral             32    'h6fe8d9c6
#   hrdata[12]        integral             32    'h6ac56a6a
#   hrdata[13]        integral             32    'h4e3a4450
#   hrdata[14]        integral             32    'h5d0d54a4
#   hrdata[15]        integral             32    'h1d2c404c
# ---------------------------------------------------------
# UVM_INFO ../../src/hvlTop/masterAgent/masterSequences/AhbMasterSequence.sv(114) @ 15: uvm_test_top.ahbEnvironment.ahbMasterAgent[1].ahbMasterSequencer@@ahbMasterSequence [AHB] req is of type: AhbMasterTransaction
# *****************************************master sequence***********************************
# -----------------------------------------------------------------------------------
# Name                      Type                  Size  Value                        
# -----------------------------------------------------------------------------------
# req                       AhbMasterTransaction  -     @1607                        
#   haddr                   integral              32    'h1                          
#   hselx                   integral              2     'b1                          
#   hburst                  string                6     SINGLE                       
#   hmastlock               integral              1     'h0                          
#   hprot                   string                29    PRIVILEGED_SECURE_INSTRUCTION
#   hsize                   string                8     HALFWORD                     
#   hnonsec                 integral              1     'h0                          
#   hexcl                   integral              1     'h0                          
#   hmaster                 integral              1     'd0                          
#   htrans                  string                6     NONSEQ                       
#   hwrite                  string                5     WRITE                        
#   hreadyout               integral              1     'h0                          
#   hresp                   string                0     ""                           
#   hexokay                 integral              1     'h0                          
#   hready                  integral              1     'h0                          
#   noOfwaitStatesDetected  integral              32    'h0                          
#   hwdata[0]               integral              32    'h29fca9f5                   
#   hwstrb[0]               integral              4     'b1010                       
#   busyControl[0]          integral              1     'h0                          
# -----------------------------------------------------------------------------------
# ********************************************************************************************
# UVM_INFO ../../src/hvlTop/masterAgent/masterSequences/AhbMasterSequence.sv(114) @ 15: uvm_test_top.ahbEnvironment.ahbMasterAgent[0].ahbMasterSequencer@@ahbMasterSequence [AHB] req is of type: AhbMasterTransaction
# *****************************************master sequence***********************************
# -------------------------------------------------------------------------------
# Name                      Type                  Size  Value                    
# -------------------------------------------------------------------------------
# req                       AhbMasterTransaction  -     @1611                    
#   haddr                   integral              32    'h1                      
#   hselx                   integral              2     'b1                      
#   hburst                  string                6     SINGLE                   
#   hmastlock               integral              1     'h0                      
#   hprot                   string                25    NORMAL_SECURE_INSTRUCTION
#   hsize                   string                8     HALFWORD                 
#   hnonsec                 integral              1     'h1                      
#   hexcl                   integral              1     'h1                      
#   hmaster                 integral              1     1                        
#   htrans                  string                6     NONSEQ                   
#   hwrite                  string                5     WRITE                    
#   hreadyout               integral              1     'h0                      
#   hresp                   string                0     ""                       
#   hexokay                 integral              1     'h0                      
#   hready                  integral              1     'h0                      
#   noOfwaitStatesDetected  integral              32    'h0                      
#   hwdata[0]               integral              32    'hbb20c154               
#   hwstrb[0]               integral              4     'b1100                   
#   busyControl[0]          integral              1     'h0                      
# -------------------------------------------------------------------------------
# ********************************************************************************************
# UVM_INFO ../../src/hvlTop/slaveAgent/AhbSlaveSequenceItemConverter.sv(62) @ 15: reporter [ahbSlaveSequeceItemconverterClass] After randomizing noofwaitstate = 00000000000000000000000000000000
# UVM_INFO ../../src/hvlTop/slaveAgent/AhbSlaveSequenceItemConverter.sv(90) @ 15: reporter [ahbSlaveSequeceItemconverterClass] -------------------------------------------------------------
# UVM_INFO ../../src/hdlTop/slaveAgentBFM/AhbSlaveDriverBFM.sv(69) @ 15: reporter [AHB_SLAVE_DRIVER_BFM] DRIVE TO BFM TASK
######################################################################################
# 
# 
# 
# 
# 
# 
# 
# 
# 
# 
# 
# 
# 
# 
#  HEY I AM NNN
# UVM_INFO ../../src/hvlTop/slaveAgent/AhbSlaveSequenceItemConverter.sv(62) @ 15: reporter [ahbSlaveSequeceItemconverterClass] After randomizing noofwaitstate = 00000000000000000000000000000000
# UVM_INFO ../../src/hvlTop/slaveAgent/AhbSlaveSequenceItemConverter.sv(90) @ 15: reporter [ahbSlaveSequeceItemconverterClass] -------------------------------------------------------------
# UVM_INFO ../../src/hdlTop/slaveAgentBFM/AhbSlaveDriverBFM.sv(69) @ 15: reporter [AHB_SLAVE_DRIVER_BFM] DRIVE TO BFM TASK
######################################################################################
# 
# 
# 
# 
# 
# 
# 
# 
# 
# 
# 
# 
# 
# 
#  HEY I AM NNN
# UVM_INFO ../../src/hvlTop/masterAgent/AhbMasterDriverProxy.sv(67) @ 15: uvm_test_top.ahbEnvironment.ahbMasterAgent[1].ahbMasterDriverProxy [AhbMasterDriverProxy] REQ-MASTERTX 
#  -----------------------------------------------------------------------------------
# Name                      Type                  Size  Value                        
# -----------------------------------------------------------------------------------
# req                       AhbMasterTransaction  -     @1607                        
#   haddr                   integral              32    'h1                          
#   hselx                   integral              2     'b1                          
#   hburst                  string                6     SINGLE                       
#   hmastlock               integral              1     'h0                          
#   hprot                   string                29    PRIVILEGED_SECURE_INSTRUCTION
#   hsize                   string                8     HALFWORD                     
#   hnonsec                 integral              1     'h0                          
#   hexcl                   integral              1     'h0                          
#   hmaster                 integral              1     'd0                          
#   htrans                  string                6     NONSEQ                       
#   hwrite                  string                5     WRITE                        
#   hreadyout               integral              1     'h0                          
#   hresp                   string                0     ""                           
#   hexokay                 integral              1     'h0                          
#   hready                  integral              1     'h0                          
#   noOfwaitStatesDetected  integral              32    'h0                          
#   hwdata[0]               integral              32    'h29fca9f5                   
#   hwstrb[0]               integral              4     'b1010                       
#   busyControl[0]          integral              1     'h0                          
# -----------------------------------------------------------------------------------
# 
# ****************************************************************************************************
# -----------------------------------------------------------------------------------
# Name                      Type                  Size  Value                        
# -----------------------------------------------------------------------------------
# req                       AhbMasterTransaction  -     @1607                        
#   haddr                   integral              32    'h1                          
#   hselx                   integral              2     'b1                          
#   hburst                  string                6     SINGLE                       
#   hmastlock               integral              1     'h0                          
#   hprot                   string                29    PRIVILEGED_SECURE_INSTRUCTION
#   hsize                   string                8     HALFWORD                     
#   hnonsec                 integral              1     'h0                          
#   hexcl                   integral              1     'h0                          
#   hmaster                 integral              1     'd0                          
#   htrans                  string                6     NONSEQ                       
#   hwrite                  string                5     WRITE                        
#   hreadyout               integral              1     'h0                          
#   hresp                   string                0     ""                           
#   hexokay                 integral              1     'h0                          
#   hready                  integral              1     'h0                          
#   noOfwaitStatesDetected  integral              32    'h0                          
#   hwdata[0]               integral              32    'h29fca9f5                   
#   hwstrb[0]               integral              4     'b1010                       
#   busyControl[0]          integral              1     'h0                          
# -----------------------------------------------------------------------------------
# ***************************************************************************************************
# UVM_INFO ../../src/hdlTop/masterAgentBFM/AhbMasterDriverBFM.sv(54) @ 15: reporter [AHB_MASTER_DRIVER_BFM] DRIVE TO BFM TASK
# UVM_INFO ../../src/hdlTop/masterAgentBFM/AhbMasterDriverBFM.sv(64) @ 15: reporter [INSIDESINGLETRANSFER] BFM
# UVM_INFO ../../src/hdlTop/masterAgentBFM/AhbMasterDriverBFM.sv(66) @ 15: reporter [AHB_MASTER_DRIVER_BFM] DRIVING THE Single Transfer
# UVM_INFO ../../src/hvlTop/masterAgent/AhbMasterDriverProxy.sv(67) @ 15: uvm_test_top.ahbEnvironment.ahbMasterAgent[0].ahbMasterDriverProxy [AhbMasterDriverProxy] REQ-MASTERTX 
#  -------------------------------------------------------------------------------
# Name                      Type                  Size  Value                    
# -------------------------------------------------------------------------------
# req                       AhbMasterTransaction  -     @1611                    
#   haddr                   integral              32    'h1                      
#   hselx                   integral              2     'b1                      
#   hburst                  string                6     SINGLE                   
#   hmastlock               integral              1     'h0                      
#   hprot                   string                25    NORMAL_SECURE_INSTRUCTION
#   hsize                   string                8     HALFWORD                 
#   hnonsec                 integral              1     'h1                      
#   hexcl                   integral              1     'h1                      
#   hmaster                 integral              1     1                        
#   htrans                  string                6     NONSEQ                   
#   hwrite                  string                5     WRITE                    
#   hreadyout               integral              1     'h0                      
#   hresp                   string                0     ""                       
#   hexokay                 integral              1     'h0                      
#   hready                  integral              1     'h0                      
#   noOfwaitStatesDetected  integral              32    'h0                      
#   hwdata[0]               integral              32    'hbb20c154               
#   hwstrb[0]               integral              4     'b1100                   
#   busyControl[0]          integral              1     'h0                      
# -------------------------------------------------------------------------------
# 
# ****************************************************************************************************
# -------------------------------------------------------------------------------
# Name                      Type                  Size  Value                    
# -------------------------------------------------------------------------------
# req                       AhbMasterTransaction  -     @1611                    
#   haddr                   integral              32    'h1                      
#   hselx                   integral              2     'b1                      
#   hburst                  string                6     SINGLE                   
#   hmastlock               integral              1     'h0                      
#   hprot                   string                25    NORMAL_SECURE_INSTRUCTION
#   hsize                   string                8     HALFWORD                 
#   hnonsec                 integral              1     'h1                      
#   hexcl                   integral              1     'h1                      
#   hmaster                 integral              1     1                        
#   htrans                  string                6     NONSEQ                   
#   hwrite                  string                5     WRITE                    
#   hreadyout               integral              1     'h0                      
#   hresp                   string                0     ""                       
#   hexokay                 integral              1     'h0                      
#   hready                  integral              1     'h0                      
#   noOfwaitStatesDetected  integral              32    'h0                      
#   hwdata[0]               integral              32    'hbb20c154               
#   hwstrb[0]               integral              4     'b1100                   
#   busyControl[0]          integral              1     'h0                      
# -------------------------------------------------------------------------------
# ***************************************************************************************************
# UVM_INFO ../../src/hdlTop/masterAgentBFM/AhbMasterDriverBFM.sv(54) @ 15: reporter [AHB_MASTER_DRIVER_BFM] DRIVE TO BFM TASK
# UVM_INFO ../../src/hdlTop/masterAgentBFM/AhbMasterDriverBFM.sv(64) @ 15: reporter [INSIDESINGLETRANSFER] BFM
# UVM_INFO ../../src/hdlTop/masterAgentBFM/AhbMasterDriverBFM.sv(66) @ 15: reporter [AHB_MASTER_DRIVER_BFM] DRIVING THE Single Transfer
# I AM IN MANIPAL
# UVM_INFO ../../src/hdlTop/slaveAgentBFM/AhbSlaveDriverBFM.sv(87) @ 16: reporter [AHB_SLAVE_DRIVER_BFM] DRIVING THE Single Transfer
# UVM_INFO ../../src/hdlTop/masterAgentBFM/AhbMasterDriverBFM.sv(162) @ 25: reporter [AHB_MASTER_DRIVER_BFM] Bus is now IDLE
# &&&&values inside master monitor proxy '{haddr:x, hselx:x, hburst:x, hmastlock:x, hprot:x, hsize:x, hnonsec:x, hexcl:x, hmaster:x, htrans:x, hwdata:'{x, x, x, x, x, x, x, x, x, x, x, x, x, x, x, x, x}, hwstrb:'{x, x, x, x, x, x, x, x, x, x, x, x, x, x, x, x, x}, hwrite:READ, hrdata:'{x, x, x, x, x, x, x, x, x, x, x, x, x, x, x, x, x}, hreadyout:x, hresp:x, hexokay:x, hready:x, noOfWaitStates:0, busyControl:0}&&&
# UVM_INFO ../../src/hdlTop/masterAgentBFM/AhbMasterDriverBFM.sv(162) @ 25: reporter [AHB_MASTER_DRIVER_BFM] Bus is now IDLE
# &&&&values inside master monitor proxy '{haddr:x, hselx:x, hburst:x, hmastlock:x, hprot:x, hsize:x, hnonsec:x, hexcl:x, hmaster:x, htrans:x, hwdata:'{x, x, x, x, x, x, x, x, x, x, x, x, x, x, x, x, x}, hwstrb:'{x, x, x, x, x, x, x, x, x, x, x, x, x, x, x, x, x}, hwrite:READ, hrdata:'{x, x, x, x, x, x, x, x, x, x, x, x, x, x, x, x, x}, hreadyout:x, hresp:x, hexokay:x, hready:x, noOfWaitStates:0, busyControl:0}&&&
# &&&&values inside monitor proxy '{haddr:x, hselx:x, hburst:x, hmastlock:x, hprot:x, hsize:x, hnonsec:x, hexcl:x, hmaster:x, htrans:x, hwdata:'{x, x, x, x, x, x, x, x, x, x, x, x, x, x, x, x, x}, hwstrb:'{x, x, x, x, x, x, x, x, x, x, x, x, x, x, x, x, x}, hwrite:READ, hrdata:'{x, x, x, x, x, x, x, x, x, x, x, x, x, x, x, x, x}, hreadyout:x, hresp:x, hexokay:x, hready:x, noOfWaitStates:0, busyControl:0}&&&
# UVM_INFO ../../src/hvlTop/slaveAgent/AhbSlaveSequenceItemConverter.sv(141) @ 25: reporter [ahbSlaveSequeceItemconverterClass] After randomizing noofwaitstate = 00000000000000000000000000000000
# UVM_INFO ../../src/hvlTop/slaveAgent/AhbSlaveSequenceItemConverter.sv(169) @ 25: reporter [ahbSlaveSequeceItemconverterClass] -------------------------------------------------------------
# &&&&values inside monitor proxy '{haddr:x, hselx:x, hburst:x, hmastlock:x, hprot:x, hsize:x, hnonsec:x, hexcl:x, hmaster:x, htrans:x, hwdata:'{x, x, x, x, x, x, x, x, x, x, x, x, x, x, x, x, x}, hwstrb:'{x, x, x, x, x, x, x, x, x, x, x, x, x, x, x, x, x}, hwrite:READ, hrdata:'{x, x, x, x, x, x, x, x, x, x, x, x, x, x, x, x, x}, hreadyout:x, hresp:x, hexokay:x, hready:x, noOfWaitStates:0, busyControl:0}&&&
# UVM_INFO ../../src/hvlTop/slaveAgent/AhbSlaveSequenceItemConverter.sv(141) @ 25: reporter [ahbSlaveSequeceItemconverterClass] After randomizing noofwaitstate = 00000000000000000000000000000000
# UVM_INFO ../../src/hvlTop/slaveAgent/AhbSlaveSequenceItemConverter.sv(169) @ 25: reporter [ahbSlaveSequeceItemconverterClass] -------------------------------------------------------------
# 
#  
#  
#  I AM DONE 
#  
#  
#  
# 
#  
#  
#  I AM DONE 
#  
#  
#  
# UVM_INFO ../../src/hvlTop/masterAgent/masterSequences/AhbMasterSequence.sv(114) @ 25: uvm_test_top.ahbEnvironment.ahbMasterAgent[1].ahbMasterSequencer@@ahbMasterSequence [AHB] req is of type: AhbMasterTransaction
# *****************************************master sequence***********************************
# -----------------------------------------------------------------------------------
# Name                      Type                  Size  Value                        
# -----------------------------------------------------------------------------------
# req                       AhbMasterTransaction  -     @1607                        
#   haddr                   integral              32    'h1                          
#   hselx                   integral              2     'b1                          
#   hburst                  string                6     SINGLE                       
#   hmastlock               integral              1     'h0                          
#   hprot                   string                29    PRIVILEGED_SECURE_INSTRUCTION
#   hsize                   string                8     HALFWORD                     
#   hnonsec                 integral              1     'h0                          
#   hexcl                   integral              1     'h0                          
#   hmaster                 integral              1     'd0                          
#   htrans                  string                6     NONSEQ                       
#   hwrite                  string                5     WRITE                        
#   hreadyout               integral              1     'h0                          
#   hresp                   string                0     ""                           
#   hexokay                 integral              1     'h0                          
#   hready                  integral              1     'h0                          
#   noOfwaitStatesDetected  integral              32    'h0                          
#   hwdata[0]               integral              32    'h29fca9f5                   
#   hwstrb[0]               integral              4     'b1010                       
#   busyControl[0]          integral              1     'h0                          
# -----------------------------------------------------------------------------------
# ********************************************************************************************
# UVM_INFO ../../src/hvlTop/masterAgent/masterSequences/AhbMasterSequence.sv(114) @ 25: uvm_test_top.ahbEnvironment.ahbMasterAgent[0].ahbMasterSequencer@@ahbMasterSequence [AHB] req is of type: AhbMasterTransaction
# *****************************************master sequence***********************************
# -------------------------------------------------------------------------------
# Name                      Type                  Size  Value                    
# -------------------------------------------------------------------------------
# req                       AhbMasterTransaction  -     @1611                    
#   haddr                   integral              32    'h1                      
#   hselx                   integral              2     'b1                      
#   hburst                  string                6     SINGLE                   
#   hmastlock               integral              1     'h0                      
#   hprot                   string                25    NORMAL_SECURE_INSTRUCTION
#   hsize                   string                8     HALFWORD                 
#   hnonsec                 integral              1     'h1                      
#   hexcl                   integral              1     'h1                      
#   hmaster                 integral              1     1                        
#   htrans                  string                6     NONSEQ                   
#   hwrite                  string                5     WRITE                    
#   hreadyout               integral              1     'h0                      
#   hresp                   string                0     ""                       
#   hexokay                 integral              1     'h0                      
#   hready                  integral              1     'h0                      
#   noOfwaitStatesDetected  integral              32    'h0                      
#   hwdata[0]               integral              32    'hbb20c154               
#   hwstrb[0]               integral              4     'b1100                   
#   busyControl[0]          integral              1     'h0                      
# -------------------------------------------------------------------------------
# ********************************************************************************************
# UVM_INFO ../../src/hvlTop/masterAgent/AhbMasterDriverProxy.sv(67) @ 25: uvm_test_top.ahbEnvironment.ahbMasterAgent[1].ahbMasterDriverProxy [AhbMasterDriverProxy] REQ-MASTERTX 
#  -----------------------------------------------------------------------------------
# Name                      Type                  Size  Value                        
# -----------------------------------------------------------------------------------
# req                       AhbMasterTransaction  -     @1607                        
#   haddr                   integral              32    'h1                          
#   hselx                   integral              2     'b1                          
#   hburst                  string                6     SINGLE                       
#   hmastlock               integral              1     'h0                          
#   hprot                   string                29    PRIVILEGED_SECURE_INSTRUCTION
#   hsize                   string                8     HALFWORD                     
#   hnonsec                 integral              1     'h0                          
#   hexcl                   integral              1     'h0                          
#   hmaster                 integral              1     'd0                          
#   htrans                  string                6     NONSEQ                       
#   hwrite                  string                5     WRITE                        
#   hreadyout               integral              1     'h0                          
#   hresp                   string                0     ""                           
#   hexokay                 integral              1     'h0                          
#   hready                  integral              1     'h0                          
#   noOfwaitStatesDetected  integral              32    'h0                          
#   hwdata[0]               integral              32    'h29fca9f5                   
#   hwstrb[0]               integral              4     'b1010                       
#   busyControl[0]          integral              1     'h0                          
# -----------------------------------------------------------------------------------
# 
# ****************************************************************************************************
# -----------------------------------------------------------------------------------
# Name                      Type                  Size  Value                        
# -----------------------------------------------------------------------------------
# req                       AhbMasterTransaction  -     @1607                        
#   haddr                   integral              32    'h1                          
#   hselx                   integral              2     'b1                          
#   hburst                  string                6     SINGLE                       
#   hmastlock               integral              1     'h0                          
#   hprot                   string                29    PRIVILEGED_SECURE_INSTRUCTION
#   hsize                   string                8     HALFWORD                     
#   hnonsec                 integral              1     'h0                          
#   hexcl                   integral              1     'h0                          
#   hmaster                 integral              1     'd0                          
#   htrans                  string                6     NONSEQ                       
#   hwrite                  string                5     WRITE                        
#   hreadyout               integral              1     'h0                          
#   hresp                   string                0     ""                           
#   hexokay                 integral              1     'h0                          
#   hready                  integral              1     'h0                          
#   noOfwaitStatesDetected  integral              32    'h0                          
#   hwdata[0]               integral              32    'h29fca9f5                   
#   hwstrb[0]               integral              4     'b1010                       
#   busyControl[0]          integral              1     'h0                          
# -----------------------------------------------------------------------------------
# ***************************************************************************************************
# UVM_INFO ../../src/hdlTop/masterAgentBFM/AhbMasterDriverBFM.sv(54) @ 25: reporter [AHB_MASTER_DRIVER_BFM] DRIVE TO BFM TASK
# UVM_INFO ../../src/hdlTop/masterAgentBFM/AhbMasterDriverBFM.sv(64) @ 25: reporter [INSIDESINGLETRANSFER] BFM
# UVM_INFO ../../src/hdlTop/masterAgentBFM/AhbMasterDriverBFM.sv(66) @ 25: reporter [AHB_MASTER_DRIVER_BFM] DRIVING THE Single Transfer
# UVM_INFO ../../src/hvlTop/masterAgent/AhbMasterDriverProxy.sv(67) @ 25: uvm_test_top.ahbEnvironment.ahbMasterAgent[0].ahbMasterDriverProxy [AhbMasterDriverProxy] REQ-MASTERTX 
#  -------------------------------------------------------------------------------
# Name                      Type                  Size  Value                    
# -------------------------------------------------------------------------------
# req                       AhbMasterTransaction  -     @1611                    
#   haddr                   integral              32    'h1                      
#   hselx                   integral              2     'b1                      
#   hburst                  string                6     SINGLE                   
#   hmastlock               integral              1     'h0                      
#   hprot                   string                25    NORMAL_SECURE_INSTRUCTION
#   hsize                   string                8     HALFWORD                 
#   hnonsec                 integral              1     'h1                      
#   hexcl                   integral              1     'h1                      
#   hmaster                 integral              1     1                        
#   htrans                  string                6     NONSEQ                   
#   hwrite                  string                5     WRITE                    
#   hreadyout               integral              1     'h0                      
#   hresp                   string                0     ""                       
#   hexokay                 integral              1     'h0                      
#   hready                  integral              1     'h0                      
#   noOfwaitStatesDetected  integral              32    'h0                      
#   hwdata[0]               integral              32    'hbb20c154               
#   hwstrb[0]               integral              4     'b1100                   
#   busyControl[0]          integral              1     'h0                      
# -------------------------------------------------------------------------------
# 
# ****************************************************************************************************
# -------------------------------------------------------------------------------
# Name                      Type                  Size  Value                    
# -------------------------------------------------------------------------------
# req                       AhbMasterTransaction  -     @1611                    
#   haddr                   integral              32    'h1                      
#   hselx                   integral              2     'b1                      
#   hburst                  string                6     SINGLE                   
#   hmastlock               integral              1     'h0                      
#   hprot                   string                25    NORMAL_SECURE_INSTRUCTION
#   hsize                   string                8     HALFWORD                 
#   hnonsec                 integral              1     'h1                      
#   hexcl                   integral              1     'h1                      
#   hmaster                 integral              1     1                        
#   htrans                  string                6     NONSEQ                   
#   hwrite                  string                5     WRITE                    
#   hreadyout               integral              1     'h0                      
#   hresp                   string                0     ""                       
#   hexokay                 integral              1     'h0                      
#   hready                  integral              1     'h0                      
#   noOfwaitStatesDetected  integral              32    'h0                      
#   hwdata[0]               integral              32    'hbb20c154               
#   hwstrb[0]               integral              4     'b1100                   
#   busyControl[0]          integral              1     'h0                      
# -------------------------------------------------------------------------------
# ***************************************************************************************************
# UVM_INFO ../../src/hdlTop/masterAgentBFM/AhbMasterDriverBFM.sv(54) @ 25: reporter [AHB_MASTER_DRIVER_BFM] DRIVE TO BFM TASK
# UVM_INFO ../../src/hdlTop/masterAgentBFM/AhbMasterDriverBFM.sv(64) @ 25: reporter [INSIDESINGLETRANSFER] BFM
# UVM_INFO ../../src/hdlTop/masterAgentBFM/AhbMasterDriverBFM.sv(66) @ 25: reporter [AHB_MASTER_DRIVER_BFM] DRIVING THE Single Transfer
# I AM IN MANIPAL
# UVM_INFO ../../src/hdlTop/slaveAgentBFM/AhbSlaveDriverBFM.sv(87) @ 25: reporter [AHB_SLAVE_DRIVER_BFM] DRIVING THE Single Transfer
# UVM_INFO ../../src/hvlTop/slaveAgent/AhbSlaveSequenceItemConverter.sv(141) @ 25: reporter [ahbSlaveSequeceItemconverterClass] After randomizing noofwaitstate = 00000000000000000000000000000000
# UVM_INFO ../../src/hvlTop/slaveAgent/AhbSlaveSequenceItemConverter.sv(169) @ 25: reporter [ahbSlaveSequeceItemconverterClass] -------------------------------------------------------------
# (((((((((((((((SENT ACK)))))))))))))))
# ---------------------------------------------------------
# Name                Type                 Size  Value     
# ---------------------------------------------------------
# req                 AhbSlaveTransaction  -     @1615     
#   haddr             integral             32    'h0       
#   hselx             integral             2     'b0       
#   hburst            string               0     ""        
#   hmastlock         integral             1     'h0       
#   hprot             string               0     ""        
#   hsize             string               0     ""        
#   hnonsec           integral             1     'h0       
#   hexcl             integral             1     'h0       
#   hmaster           integral             1     'd0       
#   htrans            string               0     ""        
#   hwrite            string               4     READ      
#   hreadyout         integral             1     'h0       
#   hresp             string               0     ""        
#   hexokay           integral             1     'h1       
#   hready            integral             1     'h0       
#   choosePacketData  integral             1     'd0       
#   hwdata[0]         integral             32    'h5fe61c63
#   hwdata[1]         integral             32    'h2c6520c5
#   hwdata[2]         integral             32    'hb426f76a
#   hwdata[3]         integral             32    'h999097a9
#   hwdata[4]         integral             32    'h94eadbc9
#   hwdata[5]         integral             32    'h2c48a45d
#   hwdata[6]         integral             32    'hf1b001b3
#   hwdata[7]         integral             32    'had23d7dc
#   hwdata[8]         integral             32    'ha1da5809
#   hwdata[9]         integral             32    'hde0d6c08
#   hwdata[10]        integral             32    'hea28774a
#   hwdata[11]        integral             32    'he682adfd
#   hwdata[12]        integral             32    'h4914ef0e
#   hwdata[13]        integral             32    'h8a861b8c
#   hwdata[14]        integral             32    'h71c6032b
#   hwdata[15]        integral             32    'h85cca6f2
#   hwstrb[0]         integral             4     'b1111    
#   hwstrb[1]         integral             4     'b1010    
#   hwstrb[2]         integral             4     'b111     
#   hwstrb[3]         integral             4     'b0       
#   hwstrb[4]         integral             4     'b101     
#   hwstrb[5]         integral             4     'b1100    
#   hwstrb[6]         integral             4     'b1111    
#   hwstrb[7]         integral             4     'b11      
#   hwstrb[8]         integral             4     'b111     
#   hwstrb[9]         integral             4     'b10      
#   hwstrb[10]        integral             4     'b1101    
#   hwstrb[11]        integral             4     'b101     
#   hwstrb[12]        integral             4     'b100     
#   hwstrb[13]        integral             4     'b1101    
#   hwstrb[14]        integral             4     'b1000    
#   hwstrb[15]        integral             4     'b1       
#   hrdata[0]         integral             32    'hfdf197c4
#   hrdata[1]         integral             32    'hbcdfb630
#   hrdata[2]         integral             32    'hbb11ff0 
#   hrdata[3]         integral             32    'h939f865e
#   hrdata[4]         integral             32    'h8a1feb2f
#   hrdata[5]         integral             32    'h50b44ca8
#   hrdata[6]         integral             32    'ha177b945
#   hrdata[7]         integral             32    'h792fbff3
#   hrdata[8]         integral             32    'he9df8942
#   hrdata[9]         integral             32    'h6813a7a7
#   hrdata[10]        integral             32    'hd8481503
#   hrdata[11]        integral             32    'hbb364112
#   hrdata[12]        integral             32    'heb595966
#   hrdata[13]        integral             32    'h10d60197
#   hrdata[14]        integral             32    'ha4ebb45 
#   hrdata[15]        integral             32    'h4445ccfd
# ---------------------------------------------------------
# UVM_INFO ../../src/hvlTop/slaveAgent/AhbSlaveSequenceItemConverter.sv(62) @ 25: reporter [ahbSlaveSequeceItemconverterClass] After randomizing noofwaitstate = 00000000000000000000000000000000
# UVM_INFO ../../src/hvlTop/slaveAgent/AhbSlaveSequenceItemConverter.sv(90) @ 25: reporter [ahbSlaveSequeceItemconverterClass] -------------------------------------------------------------
# UVM_INFO ../../src/hdlTop/slaveAgentBFM/AhbSlaveDriverBFM.sv(69) @ 25: reporter [AHB_SLAVE_DRIVER_BFM] DRIVE TO BFM TASK
######################################################################################
# 
# 
# 
# 
# 
# 
# 
# 
# 
# 
# 
# 
# 
# 
#  HEY I AM NNN
# UVM_INFO ../../src/hdlTop/masterAgentBFM/AhbMasterDriverBFM.sv(162) @ 35: reporter [AHB_MASTER_DRIVER_BFM] Bus is now IDLE
# &&&&values inside master monitor proxy '{haddr:x, hselx:x, hburst:x, hmastlock:x, hprot:x, hsize:x, hnonsec:x, hexcl:x, hmaster:x, htrans:x, hwdata:'{x, x, x, x, x, x, x, x, x, x, x, x, x, x, x, x, x}, hwstrb:'{x, x, x, x, x, x, x, x, x, x, x, x, x, x, x, x, x}, hwrite:READ, hrdata:'{x, x, x, x, x, x, x, x, x, x, x, x, x, x, x, x, x}, hreadyout:x, hresp:x, hexokay:x, hready:x, noOfWaitStates:0, busyControl:0}&&&
# UVM_INFO ../../src/hdlTop/masterAgentBFM/AhbMasterDriverBFM.sv(162) @ 35: reporter [AHB_MASTER_DRIVER_BFM] Bus is now IDLE
# &&&&values inside master monitor proxy '{haddr:x, hselx:x, hburst:x, hmastlock:x, hprot:x, hsize:x, hnonsec:x, hexcl:x, hmaster:x, htrans:x, hwdata:'{x, x, x, x, x, x, x, x, x, x, x, x, x, x, x, x, x}, hwstrb:'{x, x, x, x, x, x, x, x, x, x, x, x, x, x, x, x, x}, hwrite:READ, hrdata:'{x, x, x, x, x, x, x, x, x, x, x, x, x, x, x, x, x}, hreadyout:x, hresp:x, hexokay:x, hready:x, noOfWaitStates:0, busyControl:0}&&&
# &&&&values inside monitor proxy '{haddr:x, hselx:x, hburst:x, hmastlock:x, hprot:x, hsize:x, hnonsec:x, hexcl:x, hmaster:x, htrans:x, hwdata:'{x, x, x, x, x, x, x, x, x, x, x, x, x, x, x, x, x}, hwstrb:'{x, x, x, x, x, x, x, x, x, x, x, x, x, x, x, x, x}, hwrite:READ, hrdata:'{x, x, x, x, x, x, x, x, x, x, x, x, x, x, x, x, x}, hreadyout:x, hresp:x, hexokay:x, hready:x, noOfWaitStates:0, busyControl:0}&&&
# UVM_INFO ../../src/hvlTop/slaveAgent/AhbSlaveSequenceItemConverter.sv(141) @ 35: reporter [ahbSlaveSequeceItemconverterClass] After randomizing noofwaitstate = 00000000000000000000000000000000
# UVM_INFO ../../src/hvlTop/slaveAgent/AhbSlaveSequenceItemConverter.sv(169) @ 35: reporter [ahbSlaveSequeceItemconverterClass] -------------------------------------------------------------
# &&&&values inside monitor proxy '{haddr:x, hselx:x, hburst:x, hmastlock:x, hprot:x, hsize:x, hnonsec:x, hexcl:x, hmaster:x, htrans:x, hwdata:'{x, x, x, x, x, x, x, x, x, x, x, x, x, x, x, x, x}, hwstrb:'{x, x, x, x, x, x, x, x, x, x, x, x, x, x, x, x, x}, hwrite:READ, hrdata:'{x, x, x, x, x, x, x, x, x, x, x, x, x, x, x, x, x}, hreadyout:x, hresp:x, hexokay:x, hready:x, noOfWaitStates:0, busyControl:0}&&&
# UVM_INFO ../../src/hvlTop/slaveAgent/AhbSlaveSequenceItemConverter.sv(141) @ 35: reporter [ahbSlaveSequeceItemconverterClass] After randomizing noofwaitstate = 00000000000000000000000000000000
# UVM_INFO ../../src/hvlTop/slaveAgent/AhbSlaveSequenceItemConverter.sv(169) @ 35: reporter [ahbSlaveSequeceItemconverterClass] -------------------------------------------------------------
# 
#  
#  
#  I AM DONE 
#  
#  
#  
# 
#  
#  
#  I AM DONE 
#  
#  
#  
# I AM IN MANIPAL
# UVM_INFO ../../src/hdlTop/slaveAgentBFM/AhbSlaveDriverBFM.sv(87) @ 35: reporter [AHB_SLAVE_DRIVER_BFM] DRIVING THE Single Transfer
# UVM_INFO ../../src/hvlTop/slaveAgent/AhbSlaveSequenceItemConverter.sv(141) @ 35: reporter [ahbSlaveSequeceItemconverterClass] After randomizing noofwaitstate = 00000000000000000000000000000000
# UVM_INFO ../../src/hvlTop/slaveAgent/AhbSlaveSequenceItemConverter.sv(169) @ 35: reporter [ahbSlaveSequeceItemconverterClass] -------------------------------------------------------------
# (((((((((((((((SENT ACK)))))))))))))))
# UVM_INFO ../../src/hvlTop/slaveAgent/AhbSlaveSequenceItemConverter.sv(141) @ 35: reporter [ahbSlaveSequeceItemconverterClass] After randomizing noofwaitstate = 00000000000000000000000000000000
# UVM_INFO ../../src/hvlTop/slaveAgent/AhbSlaveSequenceItemConverter.sv(169) @ 35: reporter [ahbSlaveSequeceItemconverterClass] -------------------------------------------------------------
# (((((((((((((((SENT ACK)))))))))))))))
# ---------------------------------------------------------
# Name                Type                 Size  Value     
# ---------------------------------------------------------
# req                 AhbSlaveTransaction  -     @1619     
#   haddr             integral             32    'h0       
#   hselx             integral             2     'b0       
#   hburst            string               0     ""        
#   hmastlock         integral             1     'h0       
#   hprot             string               0     ""        
#   hsize             string               0     ""        
#   hnonsec           integral             1     'h0       
#   hexcl             integral             1     'h0       
#   hmaster           integral             1     'd0       
#   htrans            string               0     ""        
#   hwrite            string               4     READ      
#   hreadyout         integral             1     'h1       
#   hresp             string               0     ""        
#   hexokay           integral             1     'h1       
#   hready            integral             1     'h0       
#   choosePacketData  integral             1     'd0       
#   hwdata[0]         integral             32    'ha7160857
#   hwdata[1]         integral             32    'hb555ecf9
#   hwdata[2]         integral             32    'h58d73c94
#   hwdata[3]         integral             32    'h9898e51a
#   hwdata[4]         integral             32    'h23d2faf6
#   hwdata[5]         integral             32    'h8145ebf5
#   hwdata[6]         integral             32    'h73d370c9
#   hwdata[7]         integral             32    'h2f38758 
#   hwdata[8]         integral             32    'he0cc300d
#   hwdata[9]         integral             32    'hfce9e47f
#   hwdata[10]        integral             32    'h39ba4f82
#   hwdata[11]        integral             32    'hcb0c1185
#   hwdata[12]        integral             32    'h3f139bab
#   hwdata[13]        integral             32    'he0be23f6
#   hwdata[14]        integral             32    'h5f442181
#   hwdata[15]        integral             32    'h49998c2 
#   hwstrb[0]         integral             4     'b0       
#   hwstrb[1]         integral             4     'b1000    
#   hwstrb[2]         integral             4     'b1011    
#   hwstrb[3]         integral             4     'b1011    
#   hwstrb[4]         integral             4     'b110     
#   hwstrb[5]         integral             4     'b111     
#   hwstrb[6]         integral             4     'b1111    
#   hwstrb[7]         integral             4     'b101     
#   hwstrb[8]         integral             4     'b1110    
#   hwstrb[9]         integral             4     'b100     
#   hwstrb[10]        integral             4     'b10      
#   hwstrb[11]        integral             4     'b100     
#   hwstrb[12]        integral             4     'b1110    
#   hwstrb[13]        integral             4     'b1000    
#   hwstrb[14]        integral             4     'b10      
#   hwstrb[15]        integral             4     'b111     
#   hrdata[0]         integral             32    'h206143de
#   hrdata[1]         integral             32    'h24cb0563
#   hrdata[2]         integral             32    'h4884cb25
#   hrdata[3]         integral             32    'h81aec779
#   hrdata[4]         integral             32    'hcbb27658
#   hrdata[5]         integral             32    'h96840913
#   hrdata[6]         integral             32    'hfb843df3
#   hrdata[7]         integral             32    'h7f20212a
#   hrdata[8]         integral             32    'h25ff5c7a
#   hrdata[9]         integral             32    'hcbec4d0c
#   hrdata[10]        integral             32    'hc0ef7f45
#   hrdata[11]        integral             32    'h6fe8d9c6
#   hrdata[12]        integral             32    'h6ac56a6a
#   hrdata[13]        integral             32    'h4e3a4450
#   hrdata[14]        integral             32    'h5d0d54a4
#   hrdata[15]        integral             32    'h1d2c404c
# ---------------------------------------------------------
# UVM_INFO ../../src/hvlTop/slaveAgent/AhbSlaveSequenceItemConverter.sv(62) @ 35: reporter [ahbSlaveSequeceItemconverterClass] After randomizing noofwaitstate = 00000000000000000000000000000000
# UVM_INFO ../../src/hvlTop/slaveAgent/AhbSlaveSequenceItemConverter.sv(90) @ 35: reporter [ahbSlaveSequeceItemconverterClass] -------------------------------------------------------------
# UVM_INFO ../../src/hdlTop/slaveAgentBFM/AhbSlaveDriverBFM.sv(69) @ 35: reporter [AHB_SLAVE_DRIVER_BFM] DRIVE TO BFM TASK
######################################################################################
# 
# 
# 
# 
# 
# 
# 
# 
# 
# 
# 
# 
# 
# 
#  HEY I AM NNN
# UVM_INFO verilog_src/uvm-1.1d/src/base/uvm_objection.svh(1268) @ 40: reporter [TEST_DONE] 'run' phase is ready to proceed to the 'extract' phase
# UVM_INFO ../../src/hvlTop/environment/AhbScoreboard.sv(196) @ 40: uvm_test_top.ahbEnvironment.ahbScoreboard [AhbScoreboard] --
# ----------------------------------------------SCOREBOARD CHECK PHASE---------------------------------------
# UVM_INFO ../../src/hvlTop/environment/AhbScoreboard.sv(197) @ 40: uvm_test_top.ahbEnvironment.ahbScoreboard [AhbScoreboard]  Scoreboard Check Phase is starting
# UVM_INFO ../../src/hvlTop/environment/AhbScoreboard.sv(200) @ 40: uvm_test_top.ahbEnvironment.ahbScoreboard [AhbScoreboard] master and slave have equal no. of transactions = 0
# UVM_INFO ../../src/hvlTop/environment/AhbScoreboard.sv(201) @ 40: uvm_test_top.ahbEnvironment.ahbScoreboard [AhbScoreboard] ahbMasterTransactionCount : 0
# UVM_INFO ../../src/hvlTop/environment/AhbScoreboard.sv(202) @ 40: uvm_test_top.ahbEnvironment.ahbScoreboard [AhbScoreboard] ahbSlaveTransactionCount : 0
# UVM_INFO ../../src/hvlTop/environment/AhbScoreboard.sv(240) @ 40: uvm_test_top.ahbEnvironment.ahbScoreboard [AhbScoreboard] VerifiedMasterHwdataCount :0
# UVM_INFO ../../src/hvlTop/environment/AhbScoreboard.sv(242) @ 40: uvm_test_top.ahbEnvironment.ahbScoreboard [AhbScoreboard] FailedMasterHwdataCount : 0
# UVM_ERROR ../../src/hvlTop/environment/AhbScoreboard.sv(243) @ 40: uvm_test_top.ahbEnvironment.ahbScoreboard [SC_CheckPhase] master and slave writeData comparisions Not equal
# UVM_INFO ../../src/hvlTop/environment/AhbScoreboard.sv(264) @ 40: uvm_test_top.ahbEnvironment.ahbScoreboard [AhbScoreboard] VerifiedMasterHaddrCount :0
# UVM_INFO ../../src/hvlTop/environment/AhbScoreboard.sv(266) @ 40: uvm_test_top.ahbEnvironment.ahbScoreboard [AhbScoreboard] FailedMasterHaddrCount : 0
# UVM_ERROR ../../src/hvlTop/environment/AhbScoreboard.sv(267) @ 40: uvm_test_top.ahbEnvironment.ahbScoreboard [SC_CheckPhase] master and slave address comparisions Not equal
# UVM_INFO ../../src/hvlTop/environment/AhbScoreboard.sv(275) @ 40: uvm_test_top.ahbEnvironment.ahbScoreboard [AhbScoreboard] VerifiedMasterHwriteCount :0
# UVM_INFO ../../src/hvlTop/environment/AhbScoreboard.sv(277) @ 40: uvm_test_top.ahbEnvironment.ahbScoreboard [AhbScoreboard] FailedMasterHwriteCount : 0
# UVM_ERROR ../../src/hvlTop/environment/AhbScoreboard.sv(278) @ 40: uvm_test_top.ahbEnvironment.ahbScoreboard [SC_CheckPhase] master and slave hwrite comparisions Not equal
# UVM_INFO ../../src/hvlTop/environment/AhbScoreboard.sv(282) @ 40: uvm_test_top.ahbEnvironment.ahbScoreboard [SC_CheckPhase] AHB Master analysis FIFO is empty
# UVM_INFO ../../src/hvlTop/environment/AhbScoreboard.sv(290) @ 40: uvm_test_top.ahbEnvironment.ahbScoreboard [SC_CheckPhase] AHB Slave analysis FIFO is empty
# UVM_INFO ../../src/hvlTop/environment/AhbScoreboard.sv(297) @ 40: uvm_test_top.ahbEnvironment.ahbScoreboard [AhbScoreboard] --
# ----------------------------------------------END OF SCOREBOARD CHECK PHASE---------------------------------------
# UVM_INFO ../../src/hvlTop/masterAgent/AhbMasterCoverage.sv(114) @ 40: uvm_test_top.ahbEnvironment.ahbMasterAgent[0].ahbMasterCoverage [AhbMasterCoverage] Entered the report_phase of AHB Master Coverage
# UVM_INFO ../../src/hvlTop/masterAgent/AhbMasterCoverage.sv(115) @ 40: uvm_test_top.ahbEnvironment.ahbMasterAgent[0].ahbMasterCoverage [AhbMasterCoverage] AHB Master Agent Coverage = 0.00 %
# UVM_INFO ../../src/hvlTop/masterAgent/AhbMasterCoverage.sv(114) @ 40: uvm_test_top.ahbEnvironment.ahbMasterAgent[1].ahbMasterCoverage [AhbMasterCoverage] Entered the report_phase of AHB Master Coverage
# UVM_INFO ../../src/hvlTop/masterAgent/AhbMasterCoverage.sv(115) @ 40: uvm_test_top.ahbEnvironment.ahbMasterAgent[1].ahbMasterCoverage [AhbMasterCoverage] AHB Master Agent Coverage = 0.00 %
# UVM_INFO ../../src/hvlTop/environment/AhbScoreboard.sv(303) @ 40: uvm_test_top.ahbEnvironment.ahbScoreboard [scoreboard] --
# --------------------------------------------------Scoreboard Report-----------------------------------------------
# UVM_INFO ../../src/hvlTop/environment/AhbScoreboard.sv(305) @ 40: uvm_test_top.ahbEnvironment.ahbScoreboard [AhbScoreboard]  Scoreboard Report Phase is starting
# UVM_INFO ../../src/hvlTop/environment/AhbScoreboard.sv(308) @ 40: uvm_test_top.ahbEnvironment.ahbScoreboard [AhbScoreboard] No. of transactions from master:0
# UVM_INFO ../../src/hvlTop/environment/AhbScoreboard.sv(311) @ 40: uvm_test_top.ahbEnvironment.ahbScoreboard [AhbScoreboard] No. of transactions from slave:0
# UVM_INFO ../../src/hvlTop/environment/AhbScoreboard.sv(314) @ 40: uvm_test_top.ahbEnvironment.ahbScoreboard [AhbScoreboard] Total no. of byte wise master_hwdata comparisions passed:0
# UVM_INFO ../../src/hvlTop/environment/AhbScoreboard.sv(317) @ 40: uvm_test_top.ahbEnvironment.ahbScoreboard [AhbScoreboard] Total no. of byte wise master_paddr comparisions passed:0
# UVM_INFO ../../src/hvlTop/environment/AhbScoreboard.sv(320) @ 40: uvm_test_top.ahbEnvironment.ahbScoreboard [AhbScoreboard] Total no. of byte wise master_hwrite comparisions passed:0
# UVM_INFO ../../src/hvlTop/environment/AhbScoreboard.sv(323) @ 40: uvm_test_top.ahbEnvironment.ahbScoreboard [AhbScoreboard] Total no. of byte wise slave_prdata comparisions passed:0
# UVM_INFO ../../src/hvlTop/environment/AhbScoreboard.sv(326) @ 40: uvm_test_top.ahbEnvironment.ahbScoreboard [AhbScoreboard] No. of byte wise master_hwdata comparision failed:0
# UVM_INFO ../../src/hvlTop/environment/AhbScoreboard.sv(329) @ 40: uvm_test_top.ahbEnvironment.ahbScoreboard [AhbScoreboard] No. of byte wise master_paddr comparision failed:0
# UVM_INFO ../../src/hvlTop/environment/AhbScoreboard.sv(332) @ 40: uvm_test_top.ahbEnvironment.ahbScoreboard [AhbScoreboard] No. of byte wise master_hwrite comparision failed:0
# UVM_INFO ../../src/hvlTop/environment/AhbScoreboard.sv(335) @ 40: uvm_test_top.ahbEnvironment.ahbScoreboard [AhbScoreboard] No. of byte wise slave_prdata comparision failed:0
# UVM_INFO ../../src/hvlTop/environment/AhbScoreboard.sv(337) @ 40: uvm_test_top.ahbEnvironment.ahbScoreboard [scoreboard] --
# --------------------------------------------------End of Scoreboard Report-----------------------------------------------
# UVM_INFO ../../src/hvlTop/slaveAgent/AhbSlaveCoverage.sv(46) @ 40: uvm_test_top.ahbEnvironment.ahbSlaveAgent[0].ahbSlaveCoverage [AhbSlaveCoverage] Entered the report_phase of AHB Slave Coverage
# UVM_INFO ../../src/hvlTop/slaveAgent/AhbSlaveCoverage.sv(47) @ 40: uvm_test_top.ahbEnvironment.ahbSlaveAgent[0].ahbSlaveCoverage [AhbSlaveCoverage] AHB Slave Agent Coverage = 0.00 %
# UVM_INFO ../../src/hvlTop/slaveAgent/AhbSlaveCoverage.sv(46) @ 40: uvm_test_top.ahbEnvironment.ahbSlaveAgent[1].ahbSlaveCoverage [AhbSlaveCoverage] Entered the report_phase of AHB Slave Coverage
# UVM_INFO ../../src/hvlTop/slaveAgent/AhbSlaveCoverage.sv(47) @ 40: uvm_test_top.ahbEnvironment.ahbSlaveAgent[1].ahbSlaveCoverage [AhbSlaveCoverage] AHB Slave Agent Coverage = 0.00 %
# 
# --- UVM Report Summary ---
# 
# ** Report counts by severity
# UVM_INFO :  131
# UVM_WARNING :    0
# UVM_ERROR :    3
# UVM_FATAL :    0
# ** Report counts by id
# [AHB]     4
# [AHB_MASTER_DRIVER_BFM]    16
# [AHB_MASTER_MONITOR_BFM]     6
# [AHB_SLAVE_DRIVER_BFM]    13
# [AHB_SLAVE_MONITOR_BFM]     6
# [AhbMasterCoverage]     4
# [AhbMasterDriverProxy]     4
# [AhbMasterMonitorProxy]     2
# [AhbScoreboard]    23
# [AhbSingleWriteTest]     6
# [AhbSlaveCoverage]     4
# [AhbSlaveDriverProxy]     2
# [HDL_TOP]     1
# [INSIDESINGLETRANSFER]     4
# [Questa UVM]     3
# [RNTST]     1
# [SC_CheckPhase]     5
# [TEST_DONE]     1
# [UVMTOP]     1
# [ahb master agent bfm]     2
# [ahb slave agent bfm]     2
# [ahbSlaveSequeceItemconverterClass]    22
# [scoreboard]     2
# ** Note: $finish    : /tools/mentor/questasim_10.6c/questasim/linux/../verilog_src/uvm-1.1d/src/base/uvm_root.svh(430)
#    Time: 40 ns  Iteration: 53  Instance: /HvlTop
# Saving coverage database on exit...
# End time: 14:32:26 on Jul 21,2025, Elapsed time: 0:00:06
# Errors: 0, Warnings: 2
